All calculations;C 2-29 MT ind;C 2-29 MT ind
"b:tnow in s";"m:Psum:bus1 in MW";"m:Qsum:bus1 in Mvar"
-0.100000;0.156100;0.079860
-0.090000;0.156100;0.079860
-0.080000;0.156100;0.079860
-0.070000;0.156100;0.079860
-0.060000;0.156100;0.079860
-0.050000;0.156100;0.079860
-0.040000;0.156100;0.079860
-0.030000;0.156100;0.079860
-0.020000;0.156100;0.079860
-0.010000;0.156100;0.079860
0.000000;0.156100;0.079860
0.005000;0.155858;0.159472
0.011667;0.155858;0.159472
0.021667;0.155858;0.159472
0.031667;0.155858;0.159472
0.041667;0.155858;0.159472
0.051667;0.155858;0.159472
0.061667;0.155858;0.159472
0.071667;0.155858;0.159472
0.081667;0.155858;0.159472
0.091667;0.155858;0.159472
0.101667;0.155858;0.159472
0.111667;0.155858;0.159472
0.121667;0.155858;0.159472
0.131667;0.155858;0.159472
0.141667;0.155858;0.159472
0.151667;0.155858;0.159472
0.161667;0.155858;0.159472
0.171667;0.155858;0.159472
0.181667;0.155858;0.159472
0.191667;0.155858;0.159472
0.201667;0.155858;0.159472
0.211667;0.155858;0.159472
0.221667;0.155858;0.159472
0.230000;0.155858;0.159472
0.235000;0.156100;0.079860
0.241667;0.156100;0.079860
0.251667;0.156100;0.079860
0.261667;0.156100;0.079860
0.271667;0.156100;0.079860
0.281667;0.156100;0.079860
0.291667;0.156100;0.079860
0.301667;0.156100;0.079860
0.311667;0.156100;0.079860
0.321667;0.156100;0.079860
0.331667;0.156100;0.079860
0.341667;0.156100;0.079860
0.351667;0.156100;0.079860
0.361667;0.156100;0.079860
0.371667;0.156100;0.079860
0.381667;0.156100;0.079860
0.391667;0.156100;0.079860
0.401667;0.156100;0.079860
0.411667;0.156100;0.079860
0.421667;0.156100;0.079860
0.431667;0.156100;0.079860
0.441667;0.156100;0.079860
0.451667;0.156100;0.079860
0.461667;0.156100;0.079860
0.471667;0.156100;0.079860
0.481667;0.156100;0.079860
0.491667;0.156100;0.079860
0.501667;0.156100;0.079860
0.511667;0.156100;0.079860
0.521667;0.156100;0.079860
0.531667;0.156100;0.079860
0.541667;0.156100;0.079860
0.551667;0.156100;0.079860
0.561667;0.156100;0.079860
0.571667;0.156100;0.079860
0.581667;0.156100;0.079860
0.591667;0.156100;0.079860
0.601667;0.156100;0.079860
0.611667;0.156100;0.079860
0.621667;0.156100;0.079860
0.631667;0.156100;0.079860
0.641667;0.156100;0.079860
0.651667;0.156100;0.079860
0.661667;0.156100;0.079860
0.671667;0.156100;0.079860
0.681667;0.156100;0.079860
0.691667;0.156100;0.079860
0.701667;0.156100;0.079860
0.711667;0.156100;0.079860
0.721667;0.156100;0.079860
0.731667;0.156100;0.079860
0.741667;0.156100;0.079860
0.751667;0.156100;0.079860
0.761667;0.156100;0.079860
0.771667;0.156100;0.079860
0.781667;0.156100;0.079860
0.791667;0.156100;0.079860
0.801667;0.156100;0.079860
0.811667;0.156100;0.079860
0.821667;0.156100;0.079860
0.831667;0.156100;0.079860
0.841667;0.156100;0.079860
0.851667;0.156100;0.079860
0.861667;0.156100;0.079860
0.871667;0.156100;0.079860
0.881667;0.156100;0.079860
0.891667;0.156100;0.079860
0.901667;0.156100;0.079860
0.911667;0.156100;0.079860
0.921667;0.156100;0.079860
0.931667;0.156100;0.079860
0.941667;0.156100;0.079860
0.951667;0.156100;0.079860
0.961667;0.156100;0.079860
0.971667;0.156100;0.079860
0.981667;0.156100;0.079860
0.991667;0.156100;0.079860
1.001667;0.156100;0.079860
1.011667;0.156100;0.079860
1.021667;0.156100;0.079860
1.031667;0.156100;0.079860
1.041667;0.156100;0.079860
1.051667;0.156100;0.079860
1.061667;0.156100;0.079860
1.071667;0.156100;0.079860
1.081667;0.156100;0.079860
1.091667;0.156100;0.079860
1.101667;0.156100;0.079860
1.111667;0.156100;0.079860
1.121667;0.156100;0.079860
1.131667;0.156100;0.079860
1.141667;0.156100;0.079860
1.151667;0.156100;0.079860
1.161667;0.156100;0.079860
1.171667;0.156100;0.079860
1.181667;0.156100;0.079860
1.191667;0.156100;0.079860
1.201667;0.156100;0.079860
1.211667;0.156100;0.079860
1.221667;0.156100;0.079860
1.231667;0.156100;0.079860
1.241667;0.156100;0.079860
1.251667;0.156100;0.079860
1.261667;0.156100;0.079860
1.271667;0.156100;0.079860
1.281667;0.156100;0.079860
1.291667;0.156100;0.079860
1.301667;0.156100;0.079860
1.311667;0.156100;0.079860
1.321667;0.156100;0.079860
1.331667;0.156100;0.079860
1.341667;0.156100;0.079860
1.351667;0.156100;0.079860
1.361667;0.156100;0.079860
1.371667;0.156100;0.079860
1.381667;0.156100;0.079860
1.391667;0.156100;0.079860
1.401667;0.156100;0.079860
1.411667;0.156100;0.079860
1.421667;0.156100;0.079860
1.431667;0.156100;0.079860
1.441667;0.156100;0.079860
1.451667;0.156100;0.079860
1.461667;0.156100;0.079860
1.471667;0.156100;0.079860
1.481667;0.156100;0.079860
1.491667;0.156100;0.079860
1.501667;0.156100;0.079860
1.511667;0.156100;0.079860
1.521667;0.156100;0.079860
1.531667;0.156100;0.079860
1.541667;0.156100;0.079860
1.551667;0.156100;0.079860
1.561667;0.156100;0.079860
1.571667;0.156100;0.079860
1.581667;0.156100;0.079860
1.591667;0.156100;0.079860
1.601667;0.156100;0.079860
1.611667;0.156100;0.079860
1.621667;0.156100;0.079860
1.631667;0.156100;0.079860
1.641667;0.156100;0.079860
1.651667;0.156100;0.079860
1.661667;0.156100;0.079860
1.671667;0.156100;0.079860
1.681667;0.156100;0.079860
1.691667;0.156100;0.079860
1.701667;0.156100;0.079860
1.711667;0.156100;0.079860
1.721667;0.156100;0.079860
1.731667;0.156100;0.079860
1.741667;0.156100;0.079860
1.751667;0.156100;0.079860
1.761667;0.156100;0.079860
1.771667;0.156100;0.079860
1.781667;0.156100;0.079860
1.791667;0.156100;0.079860
1.801667;0.156100;0.079860
1.811667;0.156100;0.079860
1.821667;0.156100;0.079860
1.831667;0.156100;0.079860
1.841667;0.156100;0.079860
1.851667;0.156100;0.079860
1.861667;0.156100;0.079860
1.871667;0.156100;0.079860
1.881667;0.156100;0.079860
1.891667;0.156100;0.079860
1.901667;0.156100;0.079860
1.911667;0.156100;0.079860
1.921667;0.156100;0.079860
1.931667;0.156100;0.079860
1.941667;0.156100;0.079860
1.951667;0.156100;0.079860
1.961667;0.156100;0.079860
1.971667;0.156100;0.079860
1.981667;0.156100;0.079860
1.991667;0.156100;0.079860
2.001667;0.156100;0.079860
2.011667;0.156100;0.079860
2.021667;0.156100;0.079860
2.031667;0.156100;0.079860
2.041667;0.156100;0.079860
2.051667;0.156100;0.079860
2.061667;0.156100;0.079860
2.071667;0.156100;0.079860
2.081667;0.156100;0.079860
2.091667;0.156100;0.079860
2.101667;0.156100;0.079860
2.111667;0.156100;0.079860
2.121667;0.156100;0.079860
2.131667;0.156100;0.079860
2.141667;0.156100;0.079860
2.151667;0.156100;0.079860
2.161667;0.156100;0.079860
2.171667;0.156100;0.079860
2.181667;0.156100;0.079860
2.191667;0.156100;0.079860
2.201667;0.156100;0.079860
2.211667;0.156100;0.079860
2.221667;0.156100;0.079860
2.231667;0.156100;0.079860
2.241667;0.156100;0.079860
2.251667;0.156100;0.079860
2.261667;0.156100;0.079860
2.271667;0.156100;0.079860
2.281667;0.156100;0.079860
2.291667;0.156100;0.079860
2.301667;0.156100;0.079860
2.311667;0.156100;0.079860
2.321667;0.156100;0.079860
2.331667;0.156100;0.079860
2.341667;0.156100;0.079860
2.351667;0.156100;0.079860
2.361667;0.156100;0.079860
2.371667;0.156100;0.079860
2.381667;0.156100;0.079860
2.391667;0.156100;0.079860
2.401667;0.156100;0.079860
2.411667;0.156100;0.079860
2.421667;0.156100;0.079860
2.431667;0.156100;0.079860
2.441667;0.156100;0.079860
2.451667;0.156100;0.079860
2.461667;0.156100;0.079860
2.471667;0.156100;0.079860
2.481667;0.156100;0.079860
2.491667;0.156100;0.079860
2.501667;0.156100;0.079860
2.511667;0.156100;0.079860
2.521667;0.156100;0.079860
2.531667;0.156100;0.079860
2.541667;0.156100;0.079860
2.551667;0.156100;0.079860
2.561667;0.156100;0.079860
2.571667;0.156100;0.079860
2.581667;0.156100;0.079860
2.591667;0.156100;0.079860
2.601667;0.156100;0.079860
2.611667;0.156100;0.079860
2.621667;0.156100;0.079860
2.631667;0.156100;0.079860
2.641667;0.156100;0.079860
2.651667;0.156100;0.079860
2.661667;0.156100;0.079860
2.671667;0.156100;0.079860
2.681667;0.156100;0.079860
2.691667;0.156100;0.079860
2.701667;0.156100;0.079860
2.711667;0.156100;0.079860
2.721667;0.156100;0.079860
2.731667;0.156100;0.079860
2.741667;0.156100;0.079860
2.751667;0.156100;0.079860
2.761667;0.156100;0.079860
2.771667;0.156100;0.079860
2.781667;0.156100;0.079860
2.791667;0.156100;0.079860
2.801667;0.156100;0.079860
2.811667;0.156100;0.079860
2.821667;0.156100;0.079860
2.831667;0.156100;0.079860
2.841667;0.156100;0.079860
2.851667;0.156100;0.079860
2.861667;0.156100;0.079860
2.871667;0.156100;0.079860
2.881667;0.156100;0.079860
2.891667;0.156100;0.079860
2.901667;0.156100;0.079860
2.911667;0.156100;0.079860
2.921667;0.156100;0.079860
2.931667;0.156100;0.079860
2.941667;0.156100;0.079860
2.951667;0.156100;0.079860
2.961667;0.156100;0.079860
2.971667;0.156100;0.079860
2.981667;0.156100;0.079860
2.991667;0.156100;0.079860
3.001667;0.156100;0.079860
3.011667;0.156100;0.079860
3.021667;0.156100;0.079860
3.031667;0.156100;0.079860
3.041667;0.156100;0.079860
3.051667;0.156100;0.079860
3.061667;0.156100;0.079860
3.071667;0.156100;0.079860
3.081667;0.156100;0.079860
3.091667;0.156100;0.079860
3.101667;0.156100;0.079860
3.111667;0.156100;0.079860
3.121667;0.156100;0.079860
3.131667;0.156100;0.079860
3.141667;0.156100;0.079860
3.151667;0.156100;0.079860
3.161667;0.156100;0.079860
3.171667;0.156100;0.079860
3.181667;0.156100;0.079860
3.191667;0.156100;0.079860
3.201667;0.156100;0.079860
3.211667;0.156100;0.079860
3.221667;0.156100;0.079860
3.231667;0.156100;0.079860
3.241667;0.156100;0.079860
3.251667;0.156100;0.079860
3.261667;0.156100;0.079860
3.271667;0.156100;0.079860
3.281667;0.156100;0.079860
3.291667;0.156100;0.079860
3.301667;0.156100;0.079860
3.311667;0.156100;0.079860
3.321667;0.156100;0.079860
3.331667;0.156100;0.079860
3.341667;0.156100;0.079860
3.351667;0.156100;0.079860
3.361667;0.156100;0.079860
3.371667;0.156100;0.079860
3.381667;0.156100;0.079860
3.391667;0.156100;0.079860
3.401667;0.156100;0.079860
3.411667;0.156100;0.079860
3.421667;0.156100;0.079860
3.431667;0.156100;0.079860
3.441667;0.156100;0.079860
3.451667;0.156100;0.079860
3.461667;0.156100;0.079860
3.471667;0.156100;0.079860
3.481667;0.156100;0.079860
3.491667;0.156100;0.079860
3.501667;0.156100;0.079860
3.511667;0.156100;0.079860
3.521667;0.156100;0.079860
3.531667;0.156100;0.079860
3.541667;0.156100;0.079860
3.551667;0.156100;0.079860
3.561667;0.156100;0.079860
3.571667;0.156100;0.079860
3.581667;0.156100;0.079860
3.591667;0.156100;0.079860
3.601667;0.156100;0.079860
3.611667;0.156100;0.079860
3.621667;0.156100;0.079860
3.631667;0.156100;0.079860
3.641667;0.156100;0.079860
3.651667;0.156100;0.079860
3.661667;0.156100;0.079860
3.671667;0.156100;0.079860
3.681667;0.156100;0.079860
3.691667;0.156100;0.079860
3.701667;0.156100;0.079860
3.711667;0.156100;0.079860
3.721667;0.156100;0.079860
3.731667;0.156100;0.079860
3.741667;0.156100;0.079860
3.751667;0.156100;0.079860
3.761667;0.156100;0.079860
3.771667;0.156100;0.079860
3.781667;0.156100;0.079860
3.791667;0.156100;0.079860
3.801667;0.156100;0.079860
3.811667;0.156100;0.079860
3.821667;0.156100;0.079860
3.831667;0.156100;0.079860
3.841667;0.156100;0.079860
3.851667;0.156100;0.079860
3.861667;0.156100;0.079860
3.871667;0.156100;0.079860
3.881667;0.156100;0.079860
3.891667;0.156100;0.079860
3.901667;0.156100;0.079860
3.911667;0.156100;0.079860
3.921667;0.156100;0.079860
3.931667;0.156100;0.079860
3.941667;0.156100;0.079860
3.951667;0.156100;0.079860
3.961667;0.156100;0.079860
3.971667;0.156100;0.079860
3.981667;0.156100;0.079860
3.991667;0.156100;0.079860
4.001667;0.156100;0.079860
4.011667;0.156100;0.079860
4.021667;0.156100;0.079860
4.031667;0.156100;0.079860
4.041667;0.156100;0.079860
4.051667;0.156100;0.079860
4.061667;0.156100;0.079860
4.071667;0.156100;0.079860
4.081667;0.156100;0.079860
4.091667;0.156100;0.079860
4.101667;0.156100;0.079860
4.111667;0.156100;0.079860
4.121667;0.156100;0.079860
4.131667;0.156100;0.079860
4.141667;0.156100;0.079860
4.151667;0.156100;0.079860
4.161667;0.156100;0.079860
4.171667;0.156100;0.079860
4.181667;0.156100;0.079860
4.191667;0.156100;0.079860
4.201667;0.156100;0.079860
4.211667;0.156100;0.079860
4.221667;0.156100;0.079860
4.231667;0.156100;0.079860
4.241667;0.156100;0.079860
4.251667;0.156100;0.079860
4.261667;0.156100;0.079860
4.271667;0.156100;0.079860
4.281667;0.156100;0.079860
4.291667;0.156100;0.079860
4.301667;0.156100;0.079860
4.311667;0.156100;0.079860
4.321667;0.156100;0.079860
4.331667;0.156100;0.079860
4.341667;0.156100;0.079860
4.351667;0.156100;0.079860
4.361667;0.156100;0.079860
4.371667;0.156100;0.079860
4.381667;0.156100;0.079860
4.391667;0.156100;0.079860
4.401667;0.156100;0.079860
4.411667;0.156100;0.079860
4.421667;0.156100;0.079860
4.431667;0.156100;0.079860
4.441667;0.156100;0.079860
4.451667;0.156100;0.079860
4.461667;0.156100;0.079860
4.471667;0.156100;0.079860
4.481667;0.156100;0.079860
4.491667;0.156100;0.079860
4.501667;0.156100;0.079860
4.511667;0.156100;0.079860
4.521667;0.156100;0.079860
4.531667;0.156100;0.079860
4.541667;0.156100;0.079860
4.551667;0.156100;0.079860
4.561667;0.156100;0.079860
4.571667;0.156100;0.079860
4.581667;0.156100;0.079860
4.591667;0.156100;0.079860
4.601667;0.156100;0.079860
4.611667;0.156100;0.079860
4.621667;0.156100;0.079860
4.631667;0.156100;0.079860
4.641667;0.156100;0.079860
4.651667;0.156100;0.079860
4.661667;0.156100;0.079860
4.671667;0.156100;0.079860
4.681667;0.156100;0.079860
4.691667;0.156100;0.079860
4.701667;0.156100;0.079860
4.711667;0.156100;0.079860
4.721667;0.156100;0.079860
4.731667;0.156100;0.079860
4.741667;0.156100;0.079860
4.751667;0.156100;0.079860
4.761667;0.156100;0.079860
4.771667;0.156100;0.079860
4.781667;0.156100;0.079860
4.791667;0.156100;0.079860
4.801667;0.156100;0.079860
4.811667;0.156100;0.079860
4.821667;0.156100;0.079860
4.831667;0.156100;0.079860
4.841667;0.156100;0.079860
4.851667;0.156100;0.079860
4.861667;0.156100;0.079860
4.871667;0.156100;0.079860
4.881667;0.156100;0.079860
4.891667;0.156100;0.079860
4.901667;0.156100;0.079860
4.911667;0.156100;0.079860
4.921667;0.156100;0.079860
4.931667;0.156100;0.079860
4.941667;0.156100;0.079860
4.951667;0.156100;0.079860
4.961667;0.156100;0.079860
4.971667;0.156100;0.079860
4.981667;0.156100;0.079860
4.991667;0.156100;0.079860
