All calculations;C 2-29 MT ind;C 2-29 MT ind;N21\N21 DG;N23\N23 DG;N29\N29 DG
"b:tnow in s";"m:Psum:bus1 in MW";"m:Qsum:bus1 in Mvar";"m:u1 in p.u.";"m:u1 in p.u.";"m:u1 in p.u."
-0.100000;0.156101;0.079861;1.024560;1.027362;1.050005
-0.090000;0.156101;0.079861;1.024560;1.027362;1.050005
-0.080000;0.156101;0.079861;1.024560;1.027362;1.050005
-0.070000;0.156101;0.079861;1.024560;1.027362;1.050005
-0.060000;0.156101;0.079861;1.024560;1.027362;1.050005
-0.050000;0.156101;0.079861;1.024560;1.027362;1.050005
-0.040000;0.156101;0.079861;1.024560;1.027362;1.050005
-0.030000;0.156101;0.079861;1.024560;1.027362;1.050005
-0.020000;0.156101;0.079861;1.024560;1.027362;1.050005
-0.010000;0.156101;0.079861;1.024560;1.027362;1.050005
0.000000;0.156101;0.079861;1.024560;1.027362;1.050005
0.005000;0.155768;0.159382;1.023840;1.026360;1.048887
0.011667;0.155768;0.159382;1.023840;1.026360;1.048887
0.021667;0.155768;0.159382;1.023840;1.026360;1.048887
0.031667;0.155768;0.159382;1.023840;1.026360;1.048887
0.041667;0.155768;0.159382;1.023840;1.026360;1.048887
0.051667;0.155768;0.159382;1.023840;1.026360;1.048887
0.061667;0.155768;0.159382;1.023840;1.026360;1.048887
0.071667;0.155768;0.159382;1.023840;1.026360;1.048887
0.081667;0.155768;0.159382;1.023840;1.026360;1.048887
0.091667;0.155768;0.159382;1.023840;1.026360;1.048887
0.101667;0.155768;0.159382;1.023840;1.026360;1.048887
0.111667;0.155768;0.159382;1.023840;1.026360;1.048887
0.121667;0.155768;0.159382;1.023840;1.026360;1.048887
0.131667;0.155768;0.159382;1.023840;1.026360;1.048887
0.141667;0.155768;0.159382;1.023840;1.026360;1.048887
0.151667;0.155768;0.159382;1.023840;1.026360;1.048887
0.161667;0.155768;0.159382;1.023840;1.026360;1.048887
0.171667;0.155768;0.159382;1.023840;1.026360;1.048887
0.181667;0.155768;0.159382;1.023840;1.026360;1.048887
0.191667;0.155768;0.159382;1.023840;1.026360;1.048887
0.201667;0.155768;0.159382;1.023840;1.026360;1.048887
0.211667;0.155768;0.159382;1.023840;1.026360;1.048887
0.221667;0.155768;0.159382;1.023840;1.026360;1.048887
0.230000;0.155768;0.159382;1.023840;1.026360;1.048887
0.235000;0.156101;0.079861;1.024560;1.027363;1.050006
0.241667;0.156101;0.079861;1.024560;1.027362;1.050005
0.251667;0.156101;0.079861;1.024560;1.027362;1.050005
0.261667;0.156101;0.079861;1.024560;1.027362;1.050005
0.271667;0.156101;0.079861;1.024560;1.027362;1.050005
0.281667;0.156101;0.079861;1.024560;1.027362;1.050005
0.291667;0.156101;0.079861;1.024560;1.027362;1.050005
0.301667;0.156101;0.079861;1.024560;1.027362;1.050005
0.311667;0.156101;0.079861;1.024560;1.027362;1.050005
0.321667;0.156101;0.079861;1.024560;1.027362;1.050005
0.331667;0.156101;0.079861;1.024560;1.027362;1.050005
0.341667;0.156101;0.079861;1.024560;1.027362;1.050005
0.351667;0.156101;0.079861;1.024560;1.027362;1.050005
0.361667;0.156101;0.079861;1.024560;1.027362;1.050005
0.371667;0.156101;0.079861;1.024560;1.027362;1.050005
0.381667;0.156101;0.079861;1.024560;1.027362;1.050005
0.391667;0.156101;0.079861;1.024560;1.027362;1.050005
0.401667;0.156101;0.079861;1.024560;1.027362;1.050005
0.411667;0.156101;0.079861;1.024560;1.027362;1.050005
0.421667;0.156101;0.079861;1.024560;1.027362;1.050005
0.431667;0.156101;0.079861;1.024560;1.027362;1.050005
0.441667;0.156101;0.079861;1.024560;1.027362;1.050005
0.451667;0.156101;0.079861;1.024560;1.027362;1.050005
0.461667;0.156101;0.079861;1.024560;1.027362;1.050005
0.471667;0.156101;0.079861;1.024560;1.027362;1.050005
0.481667;0.156101;0.079861;1.024560;1.027362;1.050005
0.491667;0.156101;0.079861;1.024560;1.027362;1.050005
0.501667;0.156101;0.079861;1.024560;1.027362;1.050005
0.511667;0.156101;0.079861;1.024560;1.027362;1.050005
0.521667;0.156101;0.079861;1.024560;1.027362;1.050005
0.531667;0.156101;0.079861;1.024560;1.027362;1.050005
0.541667;0.156101;0.079861;1.024560;1.027362;1.050005
0.551667;0.156101;0.079861;1.024560;1.027362;1.050005
0.561667;0.156101;0.079861;1.024560;1.027362;1.050005
0.571667;0.156101;0.079861;1.024560;1.027362;1.050005
0.581667;0.156101;0.079861;1.024560;1.027362;1.050005
0.591667;0.156101;0.079861;1.024560;1.027362;1.050005
0.601667;0.156101;0.079861;1.024560;1.027362;1.050005
0.611667;0.156101;0.079861;1.024560;1.027362;1.050005
0.621667;0.156101;0.079861;1.024560;1.027362;1.050005
0.631667;0.156101;0.079861;1.024560;1.027362;1.050005
0.641667;0.156101;0.079861;1.024560;1.027362;1.050005
0.651667;0.156101;0.079861;1.024560;1.027362;1.050005
0.661667;0.156101;0.079861;1.024560;1.027362;1.050005
0.671667;0.156101;0.079861;1.024560;1.027362;1.050005
0.681667;0.156101;0.079861;1.024560;1.027362;1.050005
0.691667;0.156101;0.079861;1.024560;1.027362;1.050005
0.701667;0.156101;0.079861;1.024560;1.027362;1.050005
0.711667;0.156101;0.079861;1.024560;1.027362;1.050005
0.721667;0.156101;0.079861;1.024560;1.027362;1.050005
0.731667;0.156101;0.079861;1.024560;1.027362;1.050005
0.741667;0.156101;0.079861;1.024560;1.027362;1.050005
0.751667;0.156101;0.079861;1.024560;1.027362;1.050005
0.761667;0.156101;0.079861;1.024560;1.027362;1.050005
0.771667;0.156101;0.079861;1.024560;1.027362;1.050005
0.781667;0.156101;0.079861;1.024560;1.027362;1.050005
0.791667;0.156101;0.079861;1.024560;1.027362;1.050005
0.801667;0.156101;0.079861;1.024560;1.027362;1.050005
0.811667;0.156101;0.079861;1.024560;1.027362;1.050005
0.821667;0.156101;0.079861;1.024560;1.027362;1.050005
0.831667;0.156101;0.079861;1.024560;1.027362;1.050005
0.841667;0.156101;0.079861;1.024560;1.027362;1.050005
0.851667;0.156101;0.079861;1.024560;1.027362;1.050005
0.861667;0.156101;0.079861;1.024560;1.027362;1.050005
0.871667;0.156101;0.079861;1.024560;1.027362;1.050005
0.881667;0.156101;0.079861;1.024560;1.027362;1.050005
0.891667;0.156101;0.079861;1.024560;1.027362;1.050005
0.901667;0.156101;0.079861;1.024560;1.027362;1.050005
0.911667;0.156101;0.079861;1.024560;1.027362;1.050005
0.921667;0.156101;0.079861;1.024560;1.027362;1.050005
0.931667;0.156101;0.079861;1.024560;1.027362;1.050005
0.941667;0.156101;0.079861;1.024560;1.027362;1.050005
0.951667;0.156101;0.079861;1.024560;1.027362;1.050005
0.961667;0.156101;0.079861;1.024560;1.027362;1.050005
0.971667;0.156101;0.079861;1.024560;1.027362;1.050005
0.981667;0.156101;0.079861;1.024560;1.027362;1.050005
0.991667;0.156101;0.079861;1.024560;1.027362;1.050005
1.001667;0.156101;0.079861;1.024560;1.027362;1.050005
1.011667;0.156101;0.079861;1.024560;1.027362;1.050005
1.021667;0.156101;0.079861;1.024560;1.027362;1.050005
1.031667;0.156101;0.079861;1.024560;1.027362;1.050005
1.041667;0.156101;0.079861;1.024560;1.027362;1.050005
1.051667;0.156101;0.079861;1.024560;1.027362;1.050005
1.061667;0.156101;0.079861;1.024560;1.027362;1.050005
1.071667;0.156101;0.079861;1.024560;1.027362;1.050005
1.081667;0.156101;0.079861;1.024560;1.027362;1.050005
1.091667;0.156101;0.079861;1.024560;1.027362;1.050005
1.101667;0.156101;0.079861;1.024560;1.027362;1.050005
1.111667;0.156101;0.079861;1.024560;1.027362;1.050005
1.121667;0.156101;0.079861;1.024560;1.027362;1.050005
1.131667;0.156101;0.079861;1.024560;1.027362;1.050005
1.141667;0.156101;0.079861;1.024560;1.027362;1.050005
1.151667;0.156101;0.079861;1.024560;1.027362;1.050005
1.161667;0.156101;0.079861;1.024560;1.027362;1.050005
1.171667;0.156101;0.079861;1.024560;1.027362;1.050005
1.181667;0.156101;0.079861;1.024560;1.027362;1.050005
1.191667;0.156101;0.079861;1.024560;1.027362;1.050005
1.201667;0.156101;0.079861;1.024560;1.027362;1.050005
1.211667;0.156101;0.079861;1.024560;1.027362;1.050005
1.221667;0.156101;0.079861;1.024560;1.027362;1.050005
1.231667;0.156101;0.079861;1.024560;1.027362;1.050005
1.241667;0.156101;0.079861;1.024560;1.027362;1.050005
1.251667;0.156101;0.079861;1.024560;1.027362;1.050005
1.261667;0.156101;0.079861;1.024560;1.027362;1.050005
1.271667;0.156101;0.079861;1.024560;1.027362;1.050005
1.281667;0.156101;0.079861;1.024560;1.027362;1.050005
1.291667;0.156101;0.079861;1.024560;1.027362;1.050005
1.301667;0.156101;0.079861;1.024560;1.027362;1.050005
1.311667;0.156101;0.079861;1.024560;1.027362;1.050005
1.321667;0.156101;0.079861;1.024560;1.027362;1.050005
1.331667;0.156101;0.079861;1.024560;1.027362;1.050005
1.341667;0.156101;0.079861;1.024560;1.027362;1.050005
1.351667;0.156101;0.079861;1.024560;1.027362;1.050005
1.361667;0.156101;0.079861;1.024560;1.027362;1.050005
1.371667;0.156101;0.079861;1.024560;1.027362;1.050005
1.381667;0.156101;0.079861;1.024560;1.027362;1.050005
1.391667;0.156101;0.079861;1.024560;1.027362;1.050005
1.401667;0.156101;0.079861;1.024560;1.027362;1.050005
1.411667;0.156101;0.079861;1.024560;1.027362;1.050005
1.421667;0.156101;0.079861;1.024560;1.027362;1.050005
1.431667;0.156101;0.079861;1.024560;1.027362;1.050005
1.441667;0.156101;0.079861;1.024560;1.027362;1.050005
1.451667;0.156101;0.079861;1.024560;1.027362;1.050005
1.461667;0.156101;0.079861;1.024560;1.027362;1.050005
1.471667;0.156101;0.079861;1.024560;1.027362;1.050005
1.481667;0.156101;0.079861;1.024560;1.027362;1.050005
1.491667;0.156101;0.079861;1.024560;1.027362;1.050005
1.501667;0.156101;0.079861;1.024560;1.027362;1.050005
1.511667;0.156101;0.079861;1.024560;1.027362;1.050005
1.521667;0.156101;0.079861;1.024560;1.027362;1.050005
1.531667;0.156101;0.079861;1.024560;1.027362;1.050005
1.541667;0.156101;0.079861;1.024560;1.027362;1.050005
1.551667;0.156101;0.079861;1.024560;1.027362;1.050005
1.561667;0.156101;0.079861;1.024560;1.027362;1.050005
1.571667;0.156101;0.079861;1.024560;1.027362;1.050005
1.581667;0.156101;0.079861;1.024560;1.027362;1.050005
1.591667;0.156101;0.079861;1.024560;1.027362;1.050005
1.601667;0.156101;0.079861;1.024560;1.027362;1.050005
1.611667;0.156101;0.079861;1.024560;1.027362;1.050005
1.621667;0.156101;0.079861;1.024560;1.027362;1.050005
1.631667;0.156101;0.079861;1.024560;1.027362;1.050005
1.641667;0.156101;0.079861;1.024560;1.027362;1.050005
1.651667;0.156101;0.079861;1.024560;1.027362;1.050005
1.661667;0.156101;0.079861;1.024560;1.027362;1.050005
1.671667;0.156101;0.079861;1.024560;1.027362;1.050005
1.681667;0.156101;0.079861;1.024560;1.027362;1.050005
1.691667;0.156101;0.079861;1.024560;1.027362;1.050005
1.701667;0.156101;0.079861;1.024560;1.027362;1.050005
1.711667;0.156101;0.079861;1.024560;1.027362;1.050005
1.721667;0.156101;0.079861;1.024560;1.027362;1.050005
1.731667;0.156101;0.079861;1.024560;1.027362;1.050005
1.741667;0.156101;0.079861;1.024560;1.027362;1.050005
1.751667;0.156101;0.079861;1.024560;1.027362;1.050005
1.761667;0.156101;0.079861;1.024560;1.027362;1.050005
1.771667;0.156101;0.079861;1.024560;1.027362;1.050005
1.781667;0.156101;0.079861;1.024560;1.027362;1.050005
1.791667;0.156101;0.079861;1.024560;1.027362;1.050005
1.801667;0.156101;0.079861;1.024560;1.027362;1.050005
1.811667;0.156101;0.079861;1.024560;1.027362;1.050005
1.821667;0.156101;0.079861;1.024560;1.027362;1.050005
1.831667;0.156101;0.079861;1.024560;1.027362;1.050005
1.841667;0.156101;0.079861;1.024560;1.027362;1.050005
1.851667;0.156101;0.079861;1.024560;1.027362;1.050005
1.861667;0.156101;0.079861;1.024560;1.027362;1.050005
1.871667;0.156101;0.079861;1.024560;1.027362;1.050005
1.881667;0.156101;0.079861;1.024560;1.027362;1.050005
1.891667;0.156101;0.079861;1.024560;1.027362;1.050005
1.901667;0.156101;0.079861;1.024560;1.027362;1.050005
1.911667;0.156101;0.079861;1.024560;1.027362;1.050005
1.921667;0.156101;0.079861;1.024560;1.027362;1.050005
1.931667;0.156101;0.079861;1.024560;1.027362;1.050005
1.941667;0.156101;0.079861;1.024560;1.027362;1.050005
1.951667;0.156101;0.079861;1.024560;1.027362;1.050005
1.961667;0.156101;0.079861;1.024560;1.027362;1.050005
1.971667;0.156101;0.079861;1.024560;1.027362;1.050005
1.981667;0.156101;0.079861;1.024560;1.027362;1.050005
1.991667;0.156101;0.079861;1.024560;1.027362;1.050005
2.001667;0.156101;0.079861;1.024560;1.027362;1.050005
2.011667;0.156101;0.079861;1.024560;1.027362;1.050005
2.021667;0.156101;0.079861;1.024560;1.027362;1.050005
2.031667;0.156101;0.079861;1.024560;1.027362;1.050005
2.041667;0.156101;0.079861;1.024560;1.027362;1.050005
2.051667;0.156101;0.079861;1.024560;1.027362;1.050005
2.061667;0.156101;0.079861;1.024560;1.027362;1.050005
2.071667;0.156101;0.079861;1.024560;1.027362;1.050005
2.081667;0.156101;0.079861;1.024560;1.027362;1.050005
2.091667;0.156101;0.079861;1.024560;1.027362;1.050005
2.101667;0.156101;0.079861;1.024560;1.027362;1.050005
2.111667;0.156101;0.079861;1.024560;1.027362;1.050005
2.121667;0.156101;0.079861;1.024560;1.027362;1.050005
2.131667;0.156101;0.079861;1.024560;1.027362;1.050005
2.141667;0.156101;0.079861;1.024560;1.027362;1.050005
2.151667;0.156101;0.079861;1.024560;1.027362;1.050005
2.161667;0.156101;0.079861;1.024560;1.027362;1.050005
2.171667;0.156101;0.079861;1.024560;1.027362;1.050005
2.181667;0.156101;0.079861;1.024560;1.027362;1.050005
2.191667;0.156101;0.079861;1.024560;1.027362;1.050005
2.201667;0.156101;0.079861;1.024560;1.027362;1.050005
2.211667;0.156101;0.079861;1.024560;1.027362;1.050005
2.221667;0.156101;0.079861;1.024560;1.027362;1.050005
2.231667;0.156101;0.079861;1.024560;1.027362;1.050005
2.241667;0.156101;0.079861;1.024560;1.027362;1.050005
2.251667;0.156101;0.079861;1.024560;1.027362;1.050005
2.261667;0.156101;0.079861;1.024560;1.027362;1.050005
2.271667;0.156101;0.079861;1.024560;1.027362;1.050005
2.281667;0.156101;0.079861;1.024560;1.027362;1.050005
2.291667;0.156101;0.079861;1.024560;1.027362;1.050005
2.301667;0.156101;0.079861;1.024560;1.027362;1.050005
2.311667;0.156101;0.079861;1.024560;1.027362;1.050005
2.321667;0.156101;0.079861;1.024560;1.027362;1.050005
2.331667;0.156101;0.079861;1.024560;1.027362;1.050005
2.341667;0.156101;0.079861;1.024560;1.027362;1.050005
2.351667;0.156101;0.079861;1.024560;1.027362;1.050005
2.361667;0.156101;0.079861;1.024560;1.027362;1.050005
2.371667;0.156101;0.079861;1.024560;1.027362;1.050005
2.381667;0.156101;0.079861;1.024560;1.027362;1.050005
2.391667;0.156101;0.079861;1.024560;1.027362;1.050005
2.401667;0.156101;0.079861;1.024560;1.027362;1.050005
2.411667;0.156101;0.079861;1.024560;1.027362;1.050005
2.421667;0.156101;0.079861;1.024560;1.027362;1.050005
2.431667;0.156101;0.079861;1.024560;1.027362;1.050005
2.441667;0.156101;0.079861;1.024560;1.027362;1.050005
2.451667;0.156101;0.079861;1.024560;1.027362;1.050005
2.461667;0.156101;0.079861;1.024560;1.027362;1.050005
2.471667;0.156101;0.079861;1.024560;1.027362;1.050005
2.481667;0.156101;0.079861;1.024560;1.027362;1.050005
2.491667;0.156101;0.079861;1.024560;1.027362;1.050005
2.501667;0.156101;0.079861;1.024560;1.027362;1.050005
2.511667;0.156101;0.079861;1.024560;1.027362;1.050005
2.521667;0.156101;0.079861;1.024560;1.027362;1.050005
2.531667;0.156101;0.079861;1.024560;1.027362;1.050005
2.541667;0.156101;0.079861;1.024560;1.027362;1.050005
2.551667;0.156101;0.079861;1.024560;1.027362;1.050005
2.561667;0.156101;0.079861;1.024560;1.027362;1.050005
2.571667;0.156101;0.079861;1.024560;1.027362;1.050005
2.581667;0.156101;0.079861;1.024560;1.027362;1.050005
2.591667;0.156101;0.079861;1.024560;1.027362;1.050005
2.601667;0.156101;0.079861;1.024560;1.027362;1.050005
2.611667;0.156101;0.079861;1.024560;1.027362;1.050005
2.621667;0.156101;0.079861;1.024560;1.027362;1.050005
2.631667;0.156101;0.079861;1.024560;1.027362;1.050005
2.641667;0.156101;0.079861;1.024560;1.027362;1.050005
2.651667;0.156101;0.079861;1.024560;1.027362;1.050005
2.661667;0.156101;0.079861;1.024560;1.027362;1.050005
2.671667;0.156101;0.079861;1.024560;1.027362;1.050005
2.681667;0.156101;0.079861;1.024560;1.027362;1.050005
2.691667;0.156101;0.079861;1.024560;1.027362;1.050005
2.701667;0.156101;0.079861;1.024560;1.027362;1.050005
2.711667;0.156101;0.079861;1.024560;1.027362;1.050005
2.721667;0.156101;0.079861;1.024560;1.027362;1.050005
2.731667;0.156101;0.079861;1.024560;1.027362;1.050005
2.741667;0.156101;0.079861;1.024560;1.027362;1.050005
2.751667;0.156101;0.079861;1.024560;1.027362;1.050005
2.761667;0.156101;0.079861;1.024560;1.027362;1.050005
2.771667;0.156101;0.079861;1.024560;1.027362;1.050005
2.781667;0.156101;0.079861;1.024560;1.027362;1.050005
2.791667;0.156101;0.079861;1.024560;1.027362;1.050005
2.801667;0.156101;0.079861;1.024560;1.027362;1.050005
2.811667;0.156101;0.079861;1.024560;1.027362;1.050005
2.821667;0.156101;0.079861;1.024560;1.027362;1.050005
2.831667;0.156101;0.079861;1.024560;1.027362;1.050005
2.841667;0.156101;0.079861;1.024560;1.027362;1.050005
2.851667;0.156101;0.079861;1.024560;1.027362;1.050005
2.861667;0.156101;0.079861;1.024560;1.027362;1.050005
2.871667;0.156101;0.079861;1.024560;1.027362;1.050005
2.881667;0.156101;0.079861;1.024560;1.027362;1.050005
2.891667;0.156101;0.079861;1.024560;1.027362;1.050005
2.901667;0.156101;0.079861;1.024560;1.027362;1.050005
2.911667;0.156101;0.079861;1.024560;1.027362;1.050005
2.921667;0.156101;0.079861;1.024560;1.027362;1.050005
2.931667;0.156101;0.079861;1.024560;1.027362;1.050005
2.941667;0.156101;0.079861;1.024560;1.027362;1.050005
2.951667;0.156101;0.079861;1.024560;1.027362;1.050005
2.961667;0.156101;0.079861;1.024560;1.027362;1.050005
2.971667;0.156101;0.079861;1.024560;1.027362;1.050005
2.981667;0.156101;0.079861;1.024560;1.027362;1.050005
2.991667;0.156101;0.079861;1.024560;1.027362;1.050005
3.001667;0.156101;0.079861;1.024560;1.027362;1.050005
3.011667;0.156101;0.079861;1.024560;1.027362;1.050005
3.021667;0.156101;0.079861;1.024560;1.027362;1.050005
3.031667;0.156101;0.079861;1.024560;1.027362;1.050005
3.041667;0.156101;0.079861;1.024560;1.027362;1.050005
3.051667;0.156101;0.079861;1.024560;1.027362;1.050005
3.061667;0.156101;0.079861;1.024560;1.027362;1.050005
3.071667;0.156101;0.079861;1.024560;1.027362;1.050005
3.081667;0.156101;0.079861;1.024560;1.027362;1.050005
3.091667;0.156101;0.079861;1.024560;1.027362;1.050005
3.101667;0.156101;0.079861;1.024560;1.027362;1.050005
3.111667;0.156101;0.079861;1.024560;1.027362;1.050005
3.121667;0.156101;0.079861;1.024560;1.027362;1.050005
3.131667;0.156101;0.079861;1.024560;1.027362;1.050005
3.141667;0.156101;0.079861;1.024560;1.027362;1.050005
3.151667;0.156101;0.079861;1.024560;1.027362;1.050005
3.161667;0.156101;0.079861;1.024560;1.027362;1.050005
3.171667;0.156101;0.079861;1.024560;1.027362;1.050005
3.181667;0.156101;0.079861;1.024560;1.027362;1.050005
3.191667;0.156101;0.079861;1.024560;1.027362;1.050005
3.201667;0.156101;0.079861;1.024560;1.027362;1.050005
3.211667;0.156101;0.079861;1.024560;1.027362;1.050005
3.221667;0.156101;0.079861;1.024560;1.027362;1.050005
3.231667;0.156101;0.079861;1.024560;1.027362;1.050005
3.241667;0.156101;0.079861;1.024560;1.027362;1.050005
3.251667;0.156101;0.079861;1.024560;1.027362;1.050005
3.261667;0.156101;0.079861;1.024560;1.027362;1.050005
3.271667;0.156101;0.079861;1.024560;1.027362;1.050005
3.281667;0.156101;0.079861;1.024560;1.027362;1.050005
3.291667;0.156101;0.079861;1.024560;1.027362;1.050005
3.301667;0.156101;0.079861;1.024560;1.027362;1.050005
3.311667;0.156101;0.079861;1.024560;1.027362;1.050005
3.321667;0.156101;0.079861;1.024560;1.027362;1.050005
3.331667;0.156101;0.079861;1.024560;1.027362;1.050005
3.341667;0.156101;0.079861;1.024560;1.027362;1.050005
3.351667;0.156101;0.079861;1.024560;1.027362;1.050005
3.361667;0.156101;0.079861;1.024560;1.027362;1.050005
3.371667;0.156101;0.079861;1.024560;1.027362;1.050005
3.381667;0.156101;0.079861;1.024560;1.027362;1.050005
3.391667;0.156101;0.079861;1.024560;1.027362;1.050005
3.401667;0.156101;0.079861;1.024560;1.027362;1.050005
3.411667;0.156101;0.079861;1.024560;1.027362;1.050005
3.421667;0.156101;0.079861;1.024560;1.027362;1.050005
3.431667;0.156101;0.079861;1.024560;1.027362;1.050005
3.441667;0.156101;0.079861;1.024560;1.027362;1.050005
3.451667;0.156101;0.079861;1.024560;1.027362;1.050005
3.461667;0.156101;0.079861;1.024560;1.027362;1.050005
3.471667;0.156101;0.079861;1.024560;1.027362;1.050005
3.481667;0.156101;0.079861;1.024560;1.027362;1.050005
3.491667;0.156101;0.079861;1.024560;1.027362;1.050005
3.501667;0.156101;0.079861;1.024560;1.027362;1.050005
3.511667;0.156101;0.079861;1.024560;1.027362;1.050005
3.521667;0.156101;0.079861;1.024560;1.027362;1.050005
3.531667;0.156101;0.079861;1.024560;1.027362;1.050005
